Freq.	I(Ldrive)
1.00000000000000e+003	(-2.86580595789133e+001dB,8.52984945522573e+001°)
1.00230523807790e+003	(-2.86311403241629e+001dB,8.52844097637592e+001°)
1.00461579027840e+003	(-2.86041844341919e+001dB,8.52702651500077e+001°)
1.00693166885180e+003	(-2.85771916899355e+001dB,8.52560603164408e+001°)
1.00925288607668e+003	(-2.85501618707519e+001dB,8.52417948648228e+001°)
1.01157945425990e+003	(-2.85230947544086e+001dB,8.52274683932023e+001°)
1.01391138573668e+003	(-2.84959901170676e+001dB,8.52130804958678e+001°)
1.01624869287070e+003	(-2.84688477332712e+001dB,8.51986307633030e+001°)
1.01859138805412e+003	(-2.84416673759269e+001dB,8.51841187821423e+001°)
1.02093948370768e+003	(-2.84144488162928e+001dB,8.51695441351247e+001°)
1.02329299228075e+003	(-2.83871918239627e+001dB,8.51549064010476e+001°)
1.02565192625141e+003	(-2.83598961668505e+001dB,8.51402051547197e+001°)
1.02801629812647e+003	(-2.83325616111751e+001dB,8.51254399669139e+001°)
1.03038612044162e+003	(-2.83051879214447e+001dB,8.51106104043174e+001°)
1.03276140576140e+003	(-2.82777748604413e+001dB,8.50957160294849e+001°)
1.03514216667934e+003	(-2.82503221892044e+001dB,8.50807564007867e+001°)
1.03752841581801e+003	(-2.82228296670152e+001dB,8.50657310723600e+001°)
1.03992016582906e+003	(-2.81952970513803e+001dB,8.50506395940559e+001°)
1.04231742939330e+003	(-2.81677240980152e+001dB,8.50354815113893e+001°)
1.04472021922080e+003	(-2.81401105608274e+001dB,8.50202563654847e+001°)
1.04712854805090e+003	(-2.81124561919002e+001dB,8.50049636930234e+001°)
1.04954242865232e+003	(-2.80847607414747e+001dB,8.49896030261896e+001°)
1.05196187382322e+003	(-2.80570239579335e+001dB,8.49741738926143e+001°)
1.05438689639126e+003	(-2.80292455877825e+001dB,8.49586758153207e+001°)
1.05681750921366e+003	(-2.80014253756338e+001dB,8.49431083126663e+001°)
1.05925372517729e+003	(-2.79735630641876e+001dB,8.49274708982865e+001°)
1.06169555719872e+003	(-2.79456583942141e+001dB,8.49117630810356e+001°)
1.06414301822431e+003	(-2.79177111045353e+001dB,8.48959843649276e+001°)
1.06659612123026e+003	(-2.78897209320064e+001dB,8.48801342490762e+001°)
1.06905487922266e+003	(-2.78616876114973e+001dB,8.48642122276342e+001°)
1.07151930523761e+003	(-2.78336108758736e+001dB,8.48482177897307e+001°)
1.07398941234124e+003	(-2.78054904559773e+001dB,8.48321504194092e+001°)
1.07646521362983e+003	(-2.77773260806073e+001dB,8.48160095955632e+001°)
1.07894672222983e+003	(-2.77491174765004e+001dB,8.47997947918717e+001°)
1.08143395129794e+003	(-2.77208643683107e+001dB,8.47835054767337e+001°)
1.08392691402120e+003	(-2.76925664785901e+001dB,8.47671411132013e+001°)
1.08642562361706e+003	(-2.76642235277674e+001dB,8.47507011589115e+001°)
1.08893009333343e+003	(-2.76358352341284e+001dB,8.47341850660188e+001°)
1.09144033644875e+003	(-2.76074013137944e+001dB,8.47175922811237e+001°)
1.09395636627209e+003	(-2.75789214807017e+001dB,8.47009222452037e+001°)
1.09647819614318e+003	(-2.75503954465800e+001dB,8.46841743935392e+001°)
1.09900583943252e+003	(-2.75218229209305e+001dB,8.46673481556432e+001°)
1.10153930954141e+003	(-2.74932036110048e+001dB,8.46504429551844e+001°)
1.10407861990207e+003	(-2.74645372217821e+001dB,8.46334582099139e+001°)
1.10662378397766e+003	(-2.74358234559472e+001dB,8.46163933315875e+001°)
1.10917481526240e+003	(-2.74070620138677e+001dB,8.45992477258891e+001°)
1.11173172728159e+003	(-2.73782525935710e+001dB,8.45820207923511e+001°)
1.11429453359173e+003	(-2.73493948907212e+001dB,8.45647119242745e+001°)
1.11686324778056e+003	(-2.73204885985954e+001dB,8.45473205086478e+001°)
1.11943788346715e+003	(-2.72915334080604e+001dB,8.45298459260645e+001°)
1.12201845430196e+003	(-2.72625290075479e+001dB,8.45122875506384e+001°)
1.12460497396692e+003	(-2.72334750830303e+001dB,8.44946447499198e+001°)
1.12719745617551e+003	(-2.72043713179968e+001dB,8.44769168848076e+001°)
1.12979591467279e+003	(-2.71752173934270e+001dB,8.44591033094618e+001°)
1.13240036323555e+003	(-2.71460129877667e+001dB,8.44412033712153e+001°)
1.13501081567231e+003	(-2.71167577769019e+001dB,8.44232164104816e+001°)
1.13762728582343e+003	(-2.70874514341327e+001dB,8.44051417606630e+001°)
1.14024978756117e+003	(-2.70580936301471e+001dB,8.43869787480581e+001°)
1.14287833478977e+003	(-2.70286840329945e+001dB,8.43687266917652e+001°)
1.14551294144553e+003	(-2.69992223080584e+001dB,8.43503849035865e+001°)
1.14815362149688e+003	(-2.69697081180298e+001dB,8.43319526879300e+001°)
1.15080038894443e+003	(-2.69401411228786e+001dB,8.43134293417085e+001°)
1.15345325782109e+003	(-2.69105209798264e+001dB,8.42948141542402e+001°)
1.15611224219210e+003	(-2.68808473433177e+001dB,8.42761064071440e+001°)
1.15877735615512e+003	(-2.68511198649915e+001dB,8.42573053742352e+001°)
1.16144861384034e+003	(-2.68213381936516e+001dB,8.42384103214193e+001°)
1.16412602941049e+003	(-2.67915019752379e+001dB,8.42194205065837e+001°)
1.16680961706096e+003	(-2.67616108527960e+001dB,8.42003351794880e+001°)
1.16949939101987e+003	(-2.67316644664475e+001dB,8.41811535816517e+001°)
1.17219536554813e+003	(-2.67016624533585e+001dB,8.41618749462412e+001°)
1.17489755493953e+003	(-2.66716044477095e+001dB,8.41424984979541e+001°)
1.17760597352080e+003	(-2.66414900806634e+001dB,8.41230234529013e+001°)
1.18032063565173e+003	(-2.66113189803339e+001dB,8.41034490184887e+001°)
1.18304155572516e+003	(-2.65810907717531e+001dB,8.40837743932955e+001°)
1.18576874816716e+003	(-2.65508050768390e+001dB,8.40639987669501e+001°)
1.18850222743701e+003	(-2.65204615143621e+001dB,8.40441213200059e+001°)
1.19124200802737e+003	(-2.64900596999121e+001dB,8.40241412238127e+001°)
1.19398810446427e+003	(-2.64595992458639e+001dB,8.40040576403883e+001°)
1.19674053130724e+003	(-2.64290797613429e+001dB,8.39838697222851e+001°)
1.19949930314937e+003	(-2.63985008521904e+001dB,8.39635766124575e+001°)
1.20226443461741e+003	(-2.63678621209281e+001dB,8.39431774441246e+001°)
1.20503594037179e+003	(-2.63371631667222e+001dB,8.39226713406320e+001°)
1.20781383510678e+003	(-2.63064035853470e+001dB,8.39020574153102e+001°)
1.21059813355048e+003	(-2.62755829691484e+001dB,8.38813347713324e+001°)
1.21338885046497e+003	(-2.62447009070064e+001dB,8.38605025015666e+001°)
1.21618600064636e+003	(-2.62137569842973e+001dB,8.38395596884297e+001°)
1.21898959892486e+003	(-2.61827507828551e+001dB,8.38185054037342e+001°)
1.22179966016487e+003	(-2.61516818809332e+001dB,8.37973387085357e+001°)
1.22461619926504e+003	(-2.61205498531647e+001dB,8.37760586529768e+001°)
1.22743923115840e+003	(-2.60893542705225e+001dB,8.37546642761277e+001°)
1.23026877081238e+003	(-2.60580947002788e+001dB,8.37331546058245e+001°)
1.23310483322890e+003	(-2.60267707059643e+001dB,8.37115286585051e+001°)
1.23594743344450e+003	(-2.59953818473264e+001dB,8.36897854390408e+001°)
1.23879658653036e+003	(-2.59639276802873e+001dB,8.36679239405667e+001°)
1.24165230759241e+003	(-2.59324077569010e+001dB,8.36459431443082e+001°)
1.24451461177138e+003	(-2.59008216253099e+001dB,8.36238420194040e+001°)
1.24738351424294e+003	(-2.58691688297016e+001dB,8.36016195227273e+001°)
1.25025903021771e+003	(-2.58374489102634e+001dB,8.35792745987018e+001°)
1.25314117494141e+003	(-2.58056614031376e+001dB,8.35568061791168e+001°)
1.25602996369487e+003	(-2.57738058403761e+001dB,8.35342131829371e+001°)
1.25892541179416e+003	(-2.57418817498930e+001dB,8.35114945161103e+001°)
1.26182753459066e+003	(-2.57098886554186e+001dB,8.34886490713709e+001°)
1.26473634747115e+003	(-2.56778260764510e+001dB,8.34656757280398e+001°)
1.26765186585784e+003	(-2.56456935282076e+001dB,8.34425733518215e+001°)
1.27057410520854e+003	(-2.56134905215765e+001dB,8.34193407945959e+001°)
1.27350308101666e+003	(-2.55812165630664e+001dB,8.33959768942093e+001°)
1.27643880881134e+003	(-2.55488711547560e+001dB,8.33724804742577e+001°)
1.27938130415752e+003	(-2.55164537942429e+001dB,8.33488503438686e+001°)
1.28233058265601e+003	(-2.54839639745917e+001dB,8.33250852974790e+001°)
1.28528665994361e+003	(-2.54514011842812e+001dB,8.33011841146082e+001°)
1.28824955169313e+003	(-2.54187649071509e+001dB,8.32771455596260e+001°)
1.29121927361353e+003	(-2.53860546223467e+001dB,8.32529683815182e+001°)
1.29419584144998e+003	(-2.53532698042663e+001dB,8.32286513136473e+001°)
1.29717927098395e+003	(-2.53204099225026e+001dB,8.32041930735068e+001°)
1.30016957803328e+003	(-2.52874744417880e+001dB,8.31795923624740e+001°)
1.30316677845229e+003	(-2.52544628219361e+001dB,8.31548478655558e+001°)
1.30617088813183e+003	(-2.52213745177841e+001dB,8.31299582511307e+001°)
1.30918192299940e+003	(-2.51882089791330e+001dB,8.31049221706859e+001°)
1.31219989901920e+003	(-2.51549656506880e+001dB,8.30797382585490e+001°)
1.31522483219223e+003	(-2.51216439719976e+001dB,8.30544051316150e+001°)
1.31825673855640e+003	(-2.50882433773919e+001dB,8.30289213890680e+001°)
1.32129563418657e+003	(-2.50547632959192e+001dB,8.30032856120974e+001°)
1.32434153519466e+003	(-2.50212031512832e+001dB,8.29774963636092e+001°)
1.32739445772973e+003	(-2.49875623617780e+001dB,8.29515521879304e+001°)
1.33045441797808e+003	(-2.49538403402226e+001dB,8.29254516105103e+001°)
1.33352143216332e+003	(-2.49200364938944e+001dB,8.28991931376125e+001°)
1.33659551654643e+003	(-2.48861502244615e+001dB,8.28727752560041e+001°)
1.33967668742593e+003	(-2.48521809279145e+001dB,8.28461964326371e+001°)
1.34276496113786e+003	(-2.48181279944967e+001dB,8.28194551143237e+001°)
1.34586035405594e+003	(-2.47839908086333e+001dB,8.27925497274064e+001°)
1.34896288259165e+003	(-2.47497687488601e+001dB,8.27654786774196e+001°)
1.35207256319427e+003	(-2.47154611877507e+001dB,8.27382403487468e+001°)
1.35518941235103e+003	(-2.46810674918419e+001dB,8.27108331042691e+001°)
1.35831344658715e+003	(-2.46465870215597e+001dB,8.26832552850083e+001°)
1.36144468246594e+003	(-2.46120191311425e+001dB,8.26555052097608e+001°)
1.36458313658892e+003	(-2.45773631685639e+001dB,8.26275811747278e+001°)
1.36772882559584e+003	(-2.45426184754540e+001dB,8.25994814531329e+001°)
1.37088176616484e+003	(-2.45077843870203e+001dB,8.25712042948373e+001°)
1.37404197501251e+003	(-2.44728602319659e+001dB,8.25427479259439e+001°)
1.37720946889394e+003	(-2.44378453324078e+001dB,8.25141105483944e+001°)
1.38038426460288e+003	(-2.44027390037933e+001dB,8.24852903395577e+001°)
1.38356637897177e+003	(-2.43675405548153e+001dB,8.24562854518115e+001°)
1.38675582887188e+003	(-2.43322492873258e+001dB,8.24270940121134e+001°)
1.38995263121334e+003	(-2.42968644962489e+001dB,8.23977141215645e+001°)
1.39315680294529e+003	(-2.42613854694916e+001dB,8.23681438549627e+001°)
1.39636836105593e+003	(-2.42258114878539e+001dB,8.23383812603492e+001°)
1.39958732257261e+003	(-2.41901418249368e+001dB,8.23084243585427e+001°)
1.40281370456195e+003	(-2.41543757470493e+001dB,8.22782711426658e+001°)
1.40604752412990e+003	(-2.41185125131141e+001dB,8.22479195776612e+001°)
1.40928879842186e+003	(-2.40825513745710e+001dB,8.22173675997974e+001°)
1.41253754462274e+003	(-2.40464915752796e+001dB,8.21866131161645e+001°)
1.41579377995707e+003	(-2.40103323514203e+001dB,8.21556540041585e+001°)
1.41905752168908e+003	(-2.39740729313928e+001dB,8.21244881109561e+001°)
1.42232878712281e+003	(-2.39377125357147e+001dB,8.20931132529777e+001°)
1.42560759360218e+003	(-2.39012503769166e+001dB,8.20615272153378e+001°)
1.42889395851109e+003	(-2.38646856594369e+001dB,8.20297277512860e+001°)
1.43218789927353e+003	(-2.38280175795142e+001dB,8.19977125816344e+001°)
1.43548943335364e+003	(-2.37912453250783e+001dB,8.19654793941729e+001°)
1.43879857825583e+003	(-2.37543680756387e+001dB,8.19330258430726e+001°)
1.44211535152486e+003	(-2.37173850021726e+001dB,8.19003495482749e+001°)
1.44543977074592e+003	(-2.36802952670099e+001dB,8.18674480948698e+001°)
1.44877185354475e+003	(-2.36430980237168e+001dB,8.18343190324575e+001°)
1.45211161758773e+003	(-2.36057924169772e+001dB,8.18009598744989e+001°)
1.45545908058195e+003	(-2.35683775824729e+001dB,8.17673680976501e+001°)
1.45881426027534e+003	(-2.35308526467605e+001dB,8.17335411410826e+001°)
1.46217717445671e+003	(-2.34932167271480e+001dB,8.16994764057896e+001°)
1.46554784095590e+003	(-2.34554689315675e+001dB,8.16651712538751e+001°)
1.46892627764385e+003	(-2.34176083584473e+001dB,8.16306230078281e+001°)
1.47231250243271e+003	(-2.33796340965808e+001dB,8.15958289497821e+001°)
1.47570653327588e+003	(-2.33415452249943e+001dB,8.15607863207545e+001°)
1.47910838816819e+003	(-2.33033408128110e+001dB,8.15254923198720e+001°)
1.48251808514594e+003	(-2.32650199191146e+001dB,8.14899441035783e+001°)
1.48593564228699e+003	(-2.32265815928093e+001dB,8.14541387848212e+001°)
1.48936107771090e+003	(-2.31880248724773e+001dB,8.14180734322253e+001°)
1.49279440957898e+003	(-2.31493487862353e+001dB,8.13817450692414e+001°)
1.49623565609442e+003	(-2.31105523515871e+001dB,8.13451506732811e+001°)
1.49968483550236e+003	(-2.30716345752743e+001dB,8.13082871748266e+001°)
1.50314196609001e+003	(-2.30325944531247e+001dB,8.12711514565249e+001°)
1.50660706618673e+003	(-2.29934309698972e+001dB,8.12337403522574e+001°)
1.51008015416413e+003	(-2.29541430991258e+001dB,8.11960506461894e+001°)
1.51356124843619e+003	(-2.29147298029582e+001dB,8.11580790717976e+001°)
1.51705036745932e+003	(-2.28751900319948e+001dB,8.11198223108738e+001°)
1.52054752973248e+003	(-2.28355227251222e+001dB,8.10812769925072e+001°)
1.52405275379728e+003	(-2.27957268093457e+001dB,8.10424396920406e+001°)
1.52756605823806e+003	(-2.27558011996178e+001dB,8.10033069300024e+001°)
1.53108746168201e+003	(-2.27157447986641e+001dB,8.09638751710157e+001°)
1.53461698279928e+003	(-2.26755564968063e+001dB,8.09241408226769e+001°)
1.53815464030302e+003	(-2.26352351717818e+001dB,8.08841002344119e+001°)
1.54170045294954e+003	(-2.25947796885608e+001dB,8.08437496963025e+001°)
1.54525443953840e+003	(-2.25541888991589e+001dB,8.08030854378843e+001°)
1.54881661891247e+003	(-2.25134616424481e+001dB,8.07621036269173e+001°)
1.55238700995807e+003	(-2.24725967439630e+001dB,8.07208003681253e+001°)
1.55596563160506e+003	(-2.24315930157048e+001dB,8.06791717019054e+001°)
1.55955250282694e+003	(-2.23904492559404e+001dB,8.06372136030041e+001°)
1.56314764264094e+003	(-2.23491642489997e+001dB,8.05949219791641e+001°)
1.56675107010813e+003	(-2.23077367650679e+001dB,8.05522926697353e+001°)
1.57036280433354e+003	(-2.22661655599746e+001dB,8.05093214442519e+001°)
1.57398286446620e+003	(-2.22244493749795e+001dB,8.04660040009749e+001°)
1.57761126969933e+003	(-2.21825869365533e+001dB,8.04223359653976e+001°)
1.58124803927037e+003	(-2.21405769561562e+001dB,8.03783128887141e+001°)
1.58489319246110e+003	(-2.20984181300109e+001dB,8.03339302462495e+001°)
1.58854674859776e+003	(-2.20561091388724e+001dB,8.02891834358499e+001°)
1.59220872705115e+003	(-2.20136486477936e+001dB,8.02440677762316e+001°)
1.59587914723672e+003	(-2.19710353058861e+001dB,8.01985785052897e+001°)
1.59955802861465e+003	(-2.19282677460777e+001dB,8.01527107783621e+001°)
1.60324539069002e+003	(-2.18853445848647e+001dB,8.01064596664501e+001°)
1.60694125301286e+003	(-2.18422644220599e+001dB,8.00598201543919e+001°)
1.61064563517825e+003	(-2.17990258405360e+001dB,8.00127871389908e+001°)
1.61435855682647e+003	(-2.17556274059652e+001dB,7.99653554270933e+001°)
1.61808003764305e+003	(-2.17120676665521e+001dB,7.99175197336177e+001°)
1.62181009735891e+003	(-2.16683451527640e+001dB,7.98692746795325e+001°)
1.62554875575047e+003	(-2.16244583770551e+001dB,7.98206147897794e+001°)
1.62929603263970e+003	(-2.15804058335850e+001dB,7.97715344911433e+001°)
1.63305194789432e+003	(-2.15361859979342e+001dB,7.97220281100657e+001°)
1.63681652142779e+003	(-2.14917973268120e+001dB,7.96720898704002e+001°)
1.64058977319952e+003	(-2.14472382577603e+001dB,7.96217138911075e+001°)
1.64437172321491e+003	(-2.14025072088526e+001dB,7.95708941838893e+001°)
1.64816239152549e+003	(-2.13576025783857e+001dB,7.95196246507585e+001°)
1.65196179822900e+003	(-2.13125227445672e+001dB,7.94678990815442e+001°)
1.65576996346951e+003	(-2.12672660651965e+001dB,7.94157111513287e+001°)
1.65958690743754e+003	(-2.12218308773408e+001dB,7.93630544178143e+001°)
1.66341265037015e+003	(-2.11762154970037e+001dB,7.93099223186199e+001°)
1.66724721255104e+003	(-2.11304182187891e+001dB,7.92563081685013e+001°)
1.67109061431069e+003	(-2.10844373155582e+001dB,7.92022051564965e+001°)
1.67494287602642e+003	(-2.10382710380803e+001dB,7.91476063429925e+001°)
1.67880401812254e+003	(-2.09919176146771e+001dB,7.90925046567077e+001°)
1.68267406107045e+003	(-2.09453752508605e+001dB,7.90368928915940e+001°)
1.68655302538872e+003	(-2.08986421289639e+001dB,7.89807637036504e+001°)
1.69044093164324e+003	(-2.08517164077662e+001dB,7.89241096076453e+001°)
1.69433780044731e+003	(-2.08045962221094e+001dB,7.88669229737502e+001°)
1.69824365246172e+003	(-2.07572796825090e+001dB,7.88091960240744e+001°)
1.70215850839493e+003	(-2.07097648747566e+001dB,7.87509208291024e+001°)
1.70608238900310e+003	(-2.06620498595164e+001dB,7.86920893040298e+001°)
1.71001531509027e+003	(-2.06141326719130e+001dB,7.86326932049938e+001°)
1.71395730750840e+003	(-2.05660113211124e+001dB,7.85727241251934e+001°)
1.71790838715757e+003	(-2.05176837898951e+001dB,7.85121734909008e+001°)
1.72186857498598e+003	(-2.04691480342212e+001dB,7.84510325573521e+001°)
1.72583789199018e+003	(-2.04204019827876e+001dB,7.83892924045227e+001°)
1.72981635921508e+003	(-2.03714435365771e+001dB,7.83269439327750e+001°)
1.73380399775412e+003	(-2.03222705683994e+001dB,7.82639778583795e+001°)
1.73780082874935e+003	(-2.02728809224233e+001dB,7.82003847089034e+001°)
1.74180687339159e+003	(-2.02232724137010e+001dB,7.81361548184622e+001°)
1.74582215292048e+003	(-2.01734428276831e+001dB,7.80712783228288e+001°)
1.74984668862463e+003	(-2.01233899197251e+001dB,7.80057451543965e+001°)
1.75388050184174e+003	(-2.00731114145849e+001dB,7.79395450369895e+001°)
1.75792361395867e+003	(-2.00226050059118e+001dB,7.78726674805192e+001°)
1.76197604641161e+003	(-1.99718683557248e+001dB,7.78051017754736e+001°)
1.76603782068614e+003	(-1.99208990938837e+001dB,7.77368369872425e+001°)
1.77010895831740e+003	(-1.98696948175487e+001dB,7.76678619502666e+001°)
1.77418948089014e+003	(-1.98182530906317e+001dB,7.75981652620077e+001°)
1.77827941003890e+003	(-1.97665714432376e+001dB,7.75277352767315e+001°)
1.78237876744807e+003	(-1.97146473710957e+001dB,7.74565600990978e+001°)
1.78648757485203e+003	(-1.96624783349808e+001dB,7.73846275775501e+001°)
1.79060585403527e+003	(-1.96100617601248e+001dB,7.73119252974995e+001°)
1.79473362683250e+003	(-1.95573950356181e+001dB,7.72384405742922e+001°)
1.79887091512876e+003	(-1.95044755138002e+001dB,7.71641604459561e+001°)
1.80301774085954e+003	(-1.94513005096403e+001dB,7.70890716657149e+001°)
1.80717412601090e+003	(-1.93978673001079e+001dB,7.70131606942674e+001°)
1.81134009261958e+003	(-1.93441731235319e+001dB,7.69364136918149e+001°)
1.81551566277311e+003	(-1.92902151789497e+001dB,7.68588165098340e+001°)
1.81970085860996e+003	(-1.92359906254454e+001dB,7.67803546825830e+001°)
1.82389570231961e+003	(-1.91814965814774e+001dB,7.67010134183339e+001°)
1.82810021614272e+003	(-1.91267301241957e+001dB,7.66207775903150e+001°)
1.83231442237119e+003	(-1.90716882887471e+001dB,7.65396317273600e+001°)
1.83653834334832e+003	(-1.90163680675709e+001dB,7.64575600042465e+001°)
1.84077200146893e+003	(-1.89607664096829e+001dB,7.63745462317165e+001°)
1.84501541917945e+003	(-1.89048802199497e+001dB,7.62905738461656e+001°)
1.84926861897805e+003	(-1.88487063583507e+001dB,7.62056258989850e+001°)
1.85353162341478e+003	(-1.87922416392307e+001dB,7.61196850455501e+001°)
1.85780445509167e+003	(-1.87354828305416e+001dB,7.60327335338363e+001°)
1.86208713666284e+003	(-1.86784266530731e+001dB,7.59447531926488e+001°)
1.86637969083464e+003	(-1.86210697796732e+001dB,7.58557254194532e+001°)
1.87068214036577e+003	(-1.85634088344593e+001dB,7.57656311677901e+001°)
1.87499450806739e+003	(-1.85054403920183e+001dB,7.56744509342595e+001°)
1.87931681680324e+003	(-1.84471609765969e+001dB,7.55821647450535e+001°)
1.88364908948977e+003	(-1.83885670612836e+001dB,7.54887521420260e+001°)
1.88799134909627e+003	(-1.83296550671799e+001dB,7.53941921682754e+001°)
