Freq.	I(Ldrive)
1.00000000000000e+003	1.54772684983858e-003,3.44982791894736e-002
1.00230523807790e+003	1.55623255922824e-003,3.45933948638469e-002
1.00461579027840e+003	1.56479193555057e-003,3.46888513077840e-002
1.00693166885180e+003	1.57340538815261e-003,3.47846503218971e-002
1.00925288607668e+003	1.58207333022734e-003,3.48807937202942e-002
1.01157945425990e+003	1.59079617885703e-003,3.49772833307050e-002
1.01391138573668e+003	1.59957435505772e-003,3.50741209946118e-002
1.01624869287070e+003	1.60840828382408e-003,3.51713085673804e-002
1.01859138805412e+003	1.61729839417456e-003,3.52688479183926e-002
1.02093948370768e+003	1.62624511919800e-003,3.53667409311805e-002
1.02329299228075e+003	1.63524889609985e-003,3.54649895035621e-002
1.02565192625141e+003	1.64431016624964e-003,3.55635955477784e-002
1.02801629812647e+003	1.65342937522902e-003,3.56625609906327e-002
1.03038612044162e+003	1.66260697288009e-003,3.57618877736297e-002
1.03276140576140e+003	1.67184341335500e-003,3.58615778531194e-002
1.03514216667934e+003	1.68113915516578e-003,3.59616332004390e-002
1.03752841581801e+003	1.69049466123456e-003,3.60620558020592e-002
1.03992016582906e+003	1.69991039894539e-003,3.61628476597304e-002
1.04231742939330e+003	1.70938684019608e-003,3.62640107906320e-002
1.04472021922080e+003	1.71892446145062e-003,3.63655472275228e-002
1.04712854805090e+003	1.72852374379268e-003,3.64674590188922e-002
1.04954242865232e+003	1.73818517298024e-003,3.65697482291151e-002
1.05196187382322e+003	1.74790923949995e-003,3.66724169386070e-002
1.05438689639126e+003	1.75769643862277e-003,3.67754672439818e-002
1.05681750921366e+003	1.76754727046068e-003,3.68789012582104e-002
1.05925372517729e+003	1.77746224002389e-003,3.69827211107836e-002
1.06169555719872e+003	1.78744185727855e-003,3.70869289478729e-002
1.06414301822431e+003	1.79748663720578e-003,3.71915269324973e-002
1.06659612123026e+003	1.80759709986090e-003,3.72965172446892e-002
1.06905487922266e+003	1.81777377043458e-003,3.74019020816640e-002
1.07151930523761e+003	1.82801717931336e-003,3.75076836579903e-002
1.07398941234124e+003	1.83832786214225e-003,3.76138642057636e-002
1.07646521362983e+003	1.84870635988780e-003,3.77204459747809e-002
1.07894672222983e+003	1.85915321890136e-003,3.78274312327172e-002
1.08143395129794e+003	1.86966899098480e-003,3.79348222653058e-002
1.08392691402120e+003	1.88025423345533e-003,3.80426213765187e-002
1.08642562361706e+003	1.89090950921286e-003,3.81508308887505e-002
1.08893009333343e+003	1.90163538680711e-003,3.82594531430041e-002
1.09144033644875e+003	1.91243244050630e-003,3.83684904990781e-002
1.09395636627209e+003	1.92330125036662e-003,3.84779453357575e-002
1.09647819614318e+003	1.93424240230307e-003,3.85878200510059e-002
1.09900583943252e+003	1.94525648815998e-003,3.86981170621603e-002
1.10153930954141e+003	1.95634410578500e-003,3.88088388061279e-002
1.10407861990207e+003	1.96750585910117e-003,3.89199877395867e-002
1.10662378397766e+003	1.97874235818294e-003,3.90315663391856e-002
1.10917481526240e+003	1.99005421933045e-003,3.91435771017510e-002
1.11173172728159e+003	2.00144206514783e-003,3.92560225444911e-002
1.11429453359173e+003	2.01290652461938e-003,3.93689052052081e-002
1.11686324778056e+003	2.02444823319027e-003,3.94822276425074e-002
1.11943788346715e+003	2.03606783284565e-003,3.95959924360146e-002
1.12201845430196e+003	2.04776597219208e-003,3.97102021865908e-002
1.12460497396692e+003	2.05954330654057e-003,3.98248595165537e-002
1.12719745617551e+003	2.07140049798992e-003,3.99399670698995e-002
1.12979591467279e+003	2.08333821551151e-003,4.00555275125282e-002
1.13240036323555e+003	2.09535713503564e-003,4.01715435324722e-002
1.13501081567231e+003	2.10745793953940e-003,4.02880178401272e-002
1.13762728582343e+003	2.11964131913474e-003,4.04049531684850e-002
1.14024978756117e+003	2.13190797115874e-003,4.05223522733712e-002
1.14287833478977e+003	2.14425860026533e-003,4.06402179336851e-002
1.14551294144553e+003	2.15669391851753e-003,4.07585529516412e-002
1.14815362149688e+003	2.16921464548180e-003,4.08773601530160e-002
1.15080038894443e+003	2.18182150832372e-003,4.09966423873961e-002
1.15345325782109e+003	2.19451524190426e-003,4.11164025284301e-002
1.15611224219210e+003	2.20729658887910e-003,4.12366434740845e-002
1.15877735615512e+003	2.22016629979747e-003,4.13573681469007e-002
1.16144861384034e+003	2.23312513320455e-003,4.14785794942579e-002
1.16412602941049e+003	2.24617385574333e-003,4.16002804886367e-002
1.16680961706096e+003	2.25931324225961e-003,4.17224741278888e-002
1.16949939101987e+003	2.27254407590799e-003,4.18451634355064e-002
1.17219536554813e+003	2.28586714825918e-003,4.19683514609004e-002
1.17489755493953e+003	2.29928325940921e-003,4.20920412796762e-002
1.17760597352080e+003	2.31279321809076e-003,4.22162359939174e-002
1.18032063565173e+003	2.32639784178520e-003,4.23409387324710e-002
1.18304155572516e+003	2.34009795683737e-003,4.24661526512377e-002
1.18576874816716e+003	2.35389439857087e-003,4.25918809334641e-002
1.18850222743701e+003	2.36778801140670e-003,4.27181267900402e-002
1.19124200802737e+003	2.38177964898244e-003,4.28448934598004e-002
1.19398810446427e+003	2.39587017427365e-003,4.29721842098276e-002
1.19674053130724e+003	2.41006045971767e-003,4.31000023357627e-002
1.19949930314937e+003	2.42435138733790e-003,4.32283511621173e-002
1.20226443461741e+003	2.43874384887194e-003,4.33572340425888e-002
1.20503594037179e+003	2.45323874590055e-003,4.34866543603840e-002
1.20781383510678e+003	2.46783698997814e-003,4.36166155285420e-002
1.21059813355048e+003	2.48253950276691e-003,4.37471209902656e-002
1.21338885046497e+003	2.49734721617121e-003,4.38781742192521e-002
1.21618600064636e+003	2.51226107247585e-003,4.40097787200348e-002
1.21898959892486e+003	2.52728202448483e-003,4.41419380283233e-002
1.22179966016487e+003	2.54241103566367e-003,4.42746557113517e-002
1.22461619926504e+003	2.55764908028304e-003,4.44079353682291e-002
1.22743923115840e+003	2.57299714356524e-003,4.45417806302979e-002
1.23026877081238e+003	2.58845622183243e-003,4.46761951614930e-002
1.23310483322890e+003	2.60402732265829e-003,4.48111826587094e-002
1.23594743344450e+003	2.61971146502023e-003,4.49467468521717e-002
1.23879658653036e+003	2.63550967945632e-003,4.50828915058107e-002
1.24165230759241e+003	2.65142300822271e-003,4.52196204176441e-002
1.24451461177138e+003	2.66745250545485e-003,4.53569374201621e-002
1.24738351424294e+003	2.68359923733064e-003,4.54948463807196e-002
1.25025903021771e+003	2.69986428223649e-003,4.56333512019317e-002
1.25314117494141e+003	2.71624873093627e-003,4.57724558220759e-002
1.25602996369487e+003	2.73275368674231e-003,4.59121642154992e-002
1.25892541179416e+003	2.74938026568950e-003,4.60524803930314e-002
1.26182753459066e+003	2.76612959671291e-003,4.61934084024032e-002
1.26473634747115e+003	2.78300282182730e-003,4.63349523286709e-002
1.26765186585784e+003	2.80000109630950e-003,4.64771162946453e-002
1.27057410520854e+003	2.81712558888497e-003,4.66199044613289e-002
1.27350308101666e+003	2.83437748191628e-003,4.67633210283569e-002
1.27643880881134e+003	2.85175797159502e-003,4.69073702344456e-002
1.27938130415752e+003	2.86926826813689e-003,4.70520563578467e-002
1.28233058265601e+003	2.88690959598027e-003,4.71973837168069e-002
1.28528665994361e+003	2.90468319398743e-003,4.73433566700358e-002
1.28824955169313e+003	2.92259031564991e-003,4.74899796171790e-002
1.29121927361353e+003	2.94063222929671e-003,4.76372569992972e-002
1.29419584144998e+003	2.95881021830585e-003,4.77851932993541e-002
1.29717927098395e+003	2.97712558131966e-003,4.79337930427085e-002
1.30016957803328e+003	2.99557963246451e-003,4.80830607976159e-002
1.30316677845229e+003	3.01417370157261e-003,4.82330011757352e-002
1.30617088813183e+003	3.03290913440880e-003,4.83836188326430e-002
1.30918192299940e+003	3.05178729290049e-003,4.85349184683566e-002
1.31219989901920e+003	3.07080955537178e-003,4.86869048278612e-002
1.31522483219223e+003	3.08997731678153e-003,4.88395827016493e-002
1.31825673855640e+003	3.10929198896573e-003,4.89929569262622e-002
1.32129563418657e+003	3.12875500088308e-003,4.91470323848438e-002
1.32434153519466e+003	3.14836779886575e-003,4.93018140077004e-002
1.32739445772973e+003	3.16813184687394e-003,4.94573067728681e-002
1.33045441797808e+003	3.18804862675504e-003,4.96135157066892e-002
1.33352143216332e+003	3.20811963850698e-003,4.97704458843972e-002
1.33659551654643e+003	3.22834640054594e-003,4.99281024307087e-002
1.33967668742593e+003	3.24873044997980e-003,5.00864905204247e-002
1.34276496113786e+003	3.26927334288451e-003,5.02456153790419e-002
1.34586035405594e+003	3.28997665458701e-003,5.04054822833711e-002
1.34896288259165e+003	3.31084197995183e-003,5.05660965621645e-002
1.35207256319427e+003	3.33187093367314e-003,5.07274635967529e-002
1.35518941235103e+003	3.35306515057253e-003,5.08895888216932e-002
1.35831344658715e+003	3.37442628590063e-003,5.10524777254233e-002
1.36144468246594e+003	3.39595601564529e-003,5.12161358509277e-002
1.36458313658892e+003	3.41765603684396e-003,5.13805687964134e-002
1.36772882559584e+003	3.43952806790385e-003,5.15457822159950e-002
1.37088176616484e+003	3.46157384892400e-003,5.17117818203879e-002
1.37404197501251e+003	3.48379514202728e-003,5.18785733776183e-002
1.37720946889394e+003	3.50619373169494e-003,5.20461627137353e-002
1.38038426460288e+003	3.52877142510909e-003,5.22145557135399e-002
1.38356637897177e+003	3.55153005250075e-003,5.23837583213227e-002
1.38675582887188e+003	3.57447146750361e-003,5.25537765416108e-002
1.38995263121334e+003	3.59759754751449e-003,5.27246164399294e-002
1.39315680294529e+003	3.62091019406123e-003,5.28962841435731e-002
1.39636836105593e+003	3.64441133317542e-003,5.30687858423879e-002
1.39958732257261e+003	3.66810291577311e-003,5.32421277895665e-002
1.40281370456195e+003	3.69198691804285e-003,5.34163163024552e-002
1.40604752412990e+003	3.71606534183835e-003,5.35913577633727e-002
1.40928879842186e+003	3.74034021508246e-003,5.37672586204421e-002
1.41253754462274e+003	3.76481359217350e-003,5.39440253884334e-002
1.41579377995707e+003	3.78948755440379e-003,5.41216646496234e-002
1.41905752168908e+003	3.81436421038240e-003,5.43001830546632e-002
1.42232878712281e+003	3.83944569646747e-003,5.44795873234633e-002
1.42560759360218e+003	3.86473417720590e-003,5.46598842460899e-002
1.42889395851109e+003	3.89023184578157e-003,5.48410806836764e-002
1.43218789927353e+003	3.91594092447117e-003,5.50231835693486e-002
1.43548943335364e+003	3.94186366510968e-003,5.52061999091632e-002
1.43879857825583e+003	3.96800234956296e-003,5.53901367830631e-002
1.44211535152486e+003	3.99435929021106e-003,5.55750013458446e-002
1.44543977074592e+003	4.02093683043873e-003,5.57608008281436e-002
1.44877185354475e+003	4.04773734513647e-003,5.59475425374328e-002
1.45211161758773e+003	4.07476324121038e-003,5.61352338590379e-002
1.45545908058195e+003	4.10201695810185e-003,5.63238822571684e-002
1.45881426027534e+003	4.12950096831772e-003,5.65134952759662e-002
1.46217717445671e+003	4.15721777796880e-003,5.67040805405659e-002
1.46554784095590e+003	4.18516992732077e-003,5.68956457581798e-002
1.46892627764385e+003	4.21335999135394e-003,5.70881987191930e-002
1.47231250243271e+003	4.24179058033483e-003,5.72817472982799e-002
1.47570653327588e+003	4.27046434039819e-003,5.74762994555367e-002
1.47910838816819e+003	4.29938395414002e-003,5.76718632376342e-002
1.48251808514594e+003	4.32855214122292e-003,5.78684467789844e-002
1.48593564228699e+003	4.35797165899238e-003,5.80660583029339e-002
1.48936107771090e+003	4.38764530310496e-003,5.82647061229665e-002
1.49279440957898e+003	4.41757590816974e-003,5.84643986439347e-002
1.49623565609442e+003	4.44776634840095e-003,5.86651443633045e-002
1.49968483550236e+003	4.47821953828459e-003,5.88669518724245e-002
1.50314196609001e+003	4.50893843325670e-003,5.90698298578111e-002
1.50660706618673e+003	4.53992603039718e-003,5.92737871024616e-002
1.51008015416413e+003	4.57118536913461e-003,5.94788324871829e-002
1.51356124843619e+003	4.60271953196757e-003,5.96849749919419e-002
1.51705036745932e+003	4.63453164519843e-003,5.98922236972445e-002
1.52054752973248e+003	4.66662487968266e-003,6.01005877855290e-002
1.52405275379728e+003	4.69900245159316e-003,6.03100765425894e-002
1.52756605823806e+003	4.73166762319921e-003,6.05206993590174e-002
1.53108746168201e+003	4.76462370366142e-003,6.07324657316723e-002
1.53461698279928e+003	4.79787404984352e-003,6.09453852651715e-002
1.53815464030302e+003	4.83142206713959e-003,6.11594676734102e-002
1.54170045294954e+003	4.86527121031705e-003,6.13747227811026e-002
1.54525443953840e+003	4.89942498437961e-003,6.15911605253515e-002
1.54881661891247e+003	4.93388694544558e-003,6.18087909572434e-002
1.55238700995807e+003	4.96866070164396e-003,6.20276242434707e-002
1.55596563160506e+003	5.00374991403055e-003,6.22476706679813e-002
1.55955250282694e+003	5.03915829752198e-003,6.24689406336567e-002
1.56314764264094e+003	5.07488962184819e-003,6.26914446640172e-002
1.56675107010813e+003	5.11094771252607e-003,6.29151934049588e-002
1.57036280433354e+003	5.14733645185246e-003,6.31401976265168e-002
1.57398286446620e+003	5.18405977991777e-003,6.33664682246623e-002
1.57761126969933e+003	5.22112169564106e-003,6.35940162231281e-002
1.58124803927037e+003	5.25852625782577e-003,6.38228527752644e-002
1.58489319246110e+003	5.29627758624013e-003,6.40529891659331e-002
1.58854674859776e+003	5.33437986271646e-003,6.42844368134255e-002
1.59220872705115e+003	5.37283733227771e-003,6.45172072714218e-002
1.59587914723672e+003	5.41165430428426e-003,6.47513122309803e-002
1.59955802861465e+003	5.45083515360774e-003,6.49867635225614e-002
1.60324539069002e+003	5.49038432182830e-003,6.52235731180887e-002
1.60694125301286e+003	5.53030631845788e-003,6.54617531330464e-002
1.61064563517825e+003	5.57060572218969e-003,6.57013158286116e-002
1.61435855682647e+003	5.61128718217496e-003,6.59422736138265e-002
1.61808003764305e+003	5.65235541932587e-003,6.61846390478069e-002
1.62181009735891e+003	5.69381522764865e-003,6.64284248419936e-002
1.62554875575047e+003	5.73567147560279e-003,6.66736438624387e-002
1.62929603263970e+003	5.77792910749353e-003,6.69203091321369e-002
1.63305194789432e+003	5.82059314489053e-003,6.71684338333982e-002
1.63681652142779e+003	5.86366868808104e-003,6.74180313102595e-002
1.64058977319952e+003	5.90716091755236e-003,6.76691150709457e-002
1.64437172321491e+003	5.95107509550958e-003,6.79216987903682e-002
1.64816239152549e+003	5.99541656742385e-003,6.81757963126763e-002
1.65196179822900e+003	6.04019076361711e-003,6.84314216538466e-002
1.65576996346951e+003	6.08540320088127e-003,6.86885890043282e-002
1.65958690743754e+003	6.13105948413305e-003,6.89473127317282e-002
1.66341265037015e+003	6.17716530810713e-003,6.92076073835532e-002
1.66724721255104e+003	6.22372645908505e-003,6.94694876899948e-002
1.67109061431069e+003	6.27074881666503e-003,6.97329685667729e-002
1.67494287602642e+003	6.31823835557135e-003,6.99980651180256e-002
1.67880401812254e+003	6.36620114750327e-003,7.02647926392556e-002
1.68267406107045e+003	6.41464336302755e-003,7.05331666203321e-002
1.68655302538872e+003	6.46357127351333e-003,7.08032027485469e-002
1.69044093164324e+003	6.51299125311139e-003,7.10749169117272e-002
1.69433780044731e+003	6.56290978077844e-003,7.13483252014076e-002
1.69824365246172e+003	6.61333344234777e-003,7.16234439160621e-002
1.70215850839493e+003	6.66426893264961e-003,7.19002895643973e-002
1.70608238900310e+003	6.71572305767671e-003,7.21788788687034e-002
1.71001531509027e+003	6.76770273680494e-003,7.24592287682771e-002
1.71395730750840e+003	6.82021500506098e-003,7.27413564228997e-002
1.71790838715757e+003	6.87326701544667e-003,7.30252792163905e-002
1.72186857498598e+003	6.92686604131526e-003,7.33110147602191e-002
1.72583789199018e+003	6.98101947880566e-003,7.35985808971973e-002
1.72981635921508e+003	7.03573484933155e-003,7.38879957052299e-002
1.73380399775412e+003	7.09101980213259e-003,7.41792775011491e-002
1.73780082874935e+003	7.14688211688360e-003,7.44724448446153e-002
1.74180687339159e+003	7.20332970636661e-003,7.47675165420969e-002
1.74582215292048e+003	7.26037061920805e-003,7.50645116509253e-002
1.74984668862463e+003	7.31801304267904e-003,7.53634494834325e-002
1.75388050184174e+003	7.37626530556609e-003,7.56643496111650e-002
1.75792361395867e+003	7.43513588110901e-003,7.59672318691826e-002
1.76197604641161e+003	7.49463339001052e-003,7.62721163604433e-002
1.76603782068614e+003	7.55476660351904e-003,7.65790234602714e-002
1.77010895831740e+003	7.61554444658675e-003,7.68879738209146e-002
1.77418948089014e+003	7.67697600110575e-003,7.71989883761944e-002
1.77827941003890e+003	7.73907050922119e-003,7.75120883462442e-002
1.78237876744807e+003	7.80183737672983e-003,7.78272952423466e-002
1.78648757485203e+003	7.86528617655900e-003,7.81446308718646e-002
1.79060585403527e+003	7.92942665233340e-003,7.84641173432702e-002
1.79473362683250e+003	7.99426872203208e-003,7.87857770712805e-002
1.79887091512876e+003	8.05982248173417e-003,7.91096327820880e-002
1.80301774085954e+003	8.12609820945997e-003,7.94357075187065e-002
1.80717412601090e+003	8.19310636910905e-003,7.97640246464172e-002
1.81134009261958e+003	8.26085761449612e-003,8.00946078583316e-002
1.81551566277311e+003	8.32936279349147e-003,8.04274811810642e-002
1.81970085860996e+003	8.39863295226467e-003,8.07626689805242e-002
1.82389570231961e+003	8.46867933963722e-003,8.11001959678215e-002
1.82810021614272e+003	8.53951341154703e-003,8.14400872053019e-002
1.83231442237119e+003	8.61114683562733e-003,8.17823681126972e-002
1.83653834334832e+003	8.68359149590294e-003,8.21270644734127e-002
1.84077200146893e+003	8.75685949760946e-003,8.24742024409357e-002
1.84501541917945e+003	8.83096317213683e-003,8.28238085453877e-002
1.84926861897805e+003	8.90591508210121e-003,8.31759097002033e-002
1.85353162341478e+003	8.98172802655072e-003,8.35305332089558e-002
1.85780445509167e+003	9.05841504630663e-003,8.38877067723238e-002
1.86208713666284e+003	9.13598942944679e-003,8.42474584952057e-002
1.86637969083464e+003	9.21446471693186e-003,8.46098168939846e-002
1.87068214036577e+003	9.29385470838407e-003,8.49748109039448e-002
1.87499450806739e+003	9.37417346801516e-003,8.53424698868490e-002
1.87931681680324e+003	9.45543533071937e-003,8.57128236386780e-002
1.88364908948977e+003	9.53765490832271e-003,8.60859023975288e-002
1.88799134909627e+003	9.62084709600572e-003,8.64617368516930e-002
1.89234361864495e+003	9.70502707889889e-003,8.68403581479023e-002
1.89670592121112e+003	9.79021033885508e-003,8.72217978997504e-002
1.90107827992327e+003	9.87641266140832e-003,8.76060881963020e-002
1.90546071796322e+003	9.96365014292209e-003,8.79932616108872e-002
1.90985325856621e+003	1.00519391979339e-002,8.83833512100863e-002
1.91425592502106e+003	1.01412965667025e-002,8.87763905629115e-002
1.91866874067026e+003	1.02317393229640e-002,8.91724137501905e-002
1.92309172891013e+003	1.03232848819008e-002,8.95714553741534e-002
1.92752491319091e+003	1.04159510083370e-002,8.99735505682359e-002
1.93196831701689e+003	1.05097558251596e-002,9.03787350070962e-002
1.93642196394658e+003	1.06047178219762e-002,9.07870449168496e-002
1.94088587759275e+003	1.07008558640185e-002,9.11985170855406e-002
1.94536008162263e+003	1.07981892012981e-002,9.16131888738417e-002
1.94984459975802e+003	1.08967374780194e-002,9.20310982259898e-002
1.95433945577536e+003	1.09965207422627e-002,9.24522836809749e-002
1.95884467350596e+003	1.10975594559458e-002,9.28767843839736e-002
1.96336027683602e+003	1.11998745050696e-002,9.33046400980458e-002
1.96788628970681e+003	1.13034872102604e-002,9.37358912160916e-002
1.97242273611482e+003	1.14084193376190e-002,9.41705787730836e-002
1.97696964011183e+003	1.15146931098811e-002,9.46087444585751e-002
1.98152702580507e+003	1.16223312179088e-002,9.50504306294928e-002
1.98609491735734e+003	1.17313568325155e-002,9.54956803232293e-002
1.99067333898715e+003	1.18417936166399e-002,9.59445372710241e-002
1.99526231496885e+003	1.19536657378802e-002,9.63970459116651e-002
1.99986186963271e+003	1.20669978813988e-002,9.68532514054971e-002
